T6508 000:340.119   SEGGER J-Link V7.96g Log File
T6508 000:340.399   DLL Compiled: May  8 2024 14:57:36
T6508 000:340.413   Logging started @ 2024-07-09 07:45
T6508 000:340.424   Process: D:\Keil\UV4\UV4.exe
T6508 000:340.443 - 340.434ms
T6508 000:340.462 JLINK_SetWarnOutHandler(...)
T6508 000:340.473 - 0.014ms
T6508 000:340.486 JLINK_OpenEx(...)
T6508 000:344.916   Firmware: J-Link V9 compiled May  7 2021 16:26:12
T6508 000:346.711   Firmware: J-Link V9 compiled May  7 2021 16:26:12
T6508 000:347.046   Decompressing FW timestamp took 267 us
T6508 000:354.084   Hardware: V9.50
T6508 000:354.125   S/N: 69543073
T6508 000:354.142   OEM: SEGGER
T6508 000:354.160   Feature(s): JFlash, GDB, RDI, FlashBP, FlashDL
T6508 000:355.209   Bootloader: (Could not read)
T6508 000:356.122   TELNET listener socket opened on port 19021
T6508 000:356.256   WEBSRV WEBSRV_Init(): Starting webserver thread(s)
T6508 000:356.445   WEBSRV Webserver running on local port 19080
T6508 000:356.622   Looking for J-Link GUI Server exe at: D:\Keil\ARM\Segger\JLinkGUIServer.exe
T6508 000:356.690   Looking for J-Link GUI Server exe at: E:\College Data\Technic Learning\RoboMaster\Jlink\JLink_V796g\JLinkGUIServer.exe
T6508 000:657.553   Failed to connect to J-Link GUI Server.
T6508 000:657.707 - 317.148ms returns "O.K."
T6508 000:657.767 JLINK_SetErrorOutHandler(...)
T6508 000:657.785 - 0.018ms
T6508 000:657.893 JLINK_ExecCommand("ProjectFile = "F:\RM Code\infantries\Gimbal\MDK-ARM\JLinkSettings.ini"", ...). 
T6508 000:679.019   Ref file found at: D:\Keil\ARM\Segger\JLinkDevices.ref
T6508 000:679.092   REF file references invalid XML file: E:\College Data\Technic Learning\RoboMaster\Jlink\JLink_V796g\JLinkDevices.xml
T6508 000:681.791   Device "STM32F030C6 (ALLOW OPT. BYTES)" selected.
T6508 000:682.020 - 24.139ms returns 0x00
T6508 000:683.251 JLINK_ExecCommand("Device = STM32G473CBTx", ...). 
T6508 000:684.470   Device "STM32F030C6 (ALLOW OPT. BYTES)" selected.
T6508 000:684.635 - 1.374ms returns 0x00
T6508 000:684.643 JLINK_ExecCommand("DisableConnectionTimeout", ...). 
T6508 000:684.648 - 0.001ms returns 0x01
T6508 000:684.653 JLINK_GetHardwareVersion()
T6508 000:684.656 - 0.003ms returns 95000
T6508 000:684.664 JLINK_GetDLLVersion()
T6508 000:684.667 - 0.003ms returns 79607
T6508 000:684.673 JLINK_GetOEMString(...)
T6508 000:684.677 JLINK_GetFirmwareString(...)
T6508 000:684.680 - 0.003ms
T6508 000:687.604 JLINK_GetDLLVersion()
T6508 000:687.614 - 0.009ms returns 79607
T6508 000:687.618 JLINK_GetCompileDateTime()
T6508 000:687.621 - 0.003ms
T6508 000:688.514 JLINK_GetFirmwareString(...)
T6508 000:688.522 - 0.008ms
T6508 000:689.476 JLINK_GetHardwareVersion()
T6508 000:689.483 - 0.007ms returns 95000
T6508 000:690.409 JLINK_GetSN()
T6508 000:690.417 - 0.008ms returns 69543073
T6508 000:691.272 JLINK_GetOEMString(...)
T6508 000:693.056 JLINK_TIF_Select(JLINKARM_TIF_SWD)
T6508 000:693.916 - 0.860ms returns 0x00
T6508 000:693.928 JLINK_HasError()
T6508 000:693.944 JLINK_SetSpeed(5000)
T6508 000:694.086 - 0.143ms
T6508 000:694.098 JLINK_GetId()
T6508 000:695.245   InitTarget() start
T6508 000:695.257    J-Link Script File: Executing InitTarget()
T6508 000:696.503   SWD selected. Executing JTAG -> SWD switching sequence.
T6508 000:699.566   DAP initialized successfully.
T6508 000:706.153   Active write protection detected.
T6508 000:709.284   Active read and/or write protected STM32 device detected.
This could cause problems during flash download.
Note: Unsecuring will trigger a mass erase of the internal flash.
T6508 000:710.469   Executing default behavior previously saved in the registry.
T6508 000:711.680   Device will be unsecured now.
T6508 000:718.566   DAP initialized successfully.
T6508 000:719.717   Device unlocked successfully.
T6508 000:724.621   DAP initialized successfully.
T6508 000:726.128   InitTarget() end - Took 29.3ms
T6508 000:727.867   Found SW-DP with ID 0x2BA01477
T6508 000:730.767   DPIDR: 0x2BA01477
T6508 000:731.746   CoreSight SoC-400 or earlier
T6508 000:732.648   Scanning AP map to find all available APs
T6508 000:734.270   AP[1]: Stopped AP scan as end of AP map has been reached
T6508 000:735.191   AP[0]: AHB-AP (IDR: 0x24770011)
T6508 000:736.106   Iterating through AP map to find AHB-AP to use
T6508 000:737.854   AP[0]: Core found
T6508 000:738.755   AP[0]: AHB-AP ROM base: 0xE00FF000
T6508 000:740.164   CPUID register: 0x410FC241. Implementer code: 0x41 (ARM)
T6508 000:741.140   Found Cortex-M4 r0p1, Little endian.
T6508 000:742.087   
  ***** Warning: 
T6508 000:742.095   Identified core does not match configuration. (Found: Cortex-M4, Configured: Cortex-M0)
T6508 000:742.483   -- Max. mem block: 0x00010C40
T6508 000:742.909   CPU_ReadMem(4 bytes @ 0xE000EDF0)
T6508 000:743.179   CPU_ReadMem(4 bytes @ 0xE0002000)
T6508 000:744.489   FPUnit: 6 code (BP) slots and 2 literal slots
T6508 000:744.501   CPU_ReadMem(4 bytes @ 0xE000EDFC)
T6508 000:744.757   CPU_ReadMem(4 bytes @ 0xE0001000)
T6508 000:744.993   CPU_WriteMem(4 bytes @ 0xE0001000)
T6508 000:745.202   CPU_ReadMem(4 bytes @ 0xE000ED88)
T6508 000:745.514   CPU_WriteMem(4 bytes @ 0xE000ED88)
T6508 000:745.805   CPU_ReadMem(4 bytes @ 0xE000ED88)
T6508 000:746.019   CPU_WriteMem(4 bytes @ 0xE000ED88)
T6508 000:747.189   CoreSight components:
T6508 000:748.104   ROMTbl[0] @ E00FF000
T6508 000:748.114   CPU_ReadMem(64 bytes @ 0xE00FF000)
T6508 000:748.706   CPU_ReadMem(32 bytes @ 0xE000EFE0)
T6508 000:750.049   [0][0]: E000E000 CID B105E00D PID 000BB00C SCS-M7
T6508 000:750.060   CPU_ReadMem(32 bytes @ 0xE0001FE0)
T6508 000:751.367   [0][1]: E0001000 CID B105E00D PID 003BB002 DWT
T6508 000:751.378   CPU_ReadMem(32 bytes @ 0xE0002FE0)
T6508 000:752.706   [0][2]: E0002000 CID B105E00D PID 002BB003 FPB
T6508 000:752.717   CPU_ReadMem(32 bytes @ 0xE0000FE0)
T6508 000:754.082   [0][3]: E0000000 CID B105E00D PID 003BB001 ITM
T6508 000:754.092   CPU_ReadMem(32 bytes @ 0xE0040FE0)
T6508 000:755.451   [0][4]: E0040000 CID B105900D PID 000BB9A1 TPIU
T6508 000:755.462   CPU_ReadMem(32 bytes @ 0xE0041FE0)
T6508 000:756.743   [0][5]: E0041000 CID B105900D PID 000BB925 ETM
T6508 000:756.994 - 62.895ms returns 0x2BA01477
T6508 000:757.005 JLINK_GetDLLVersion()
T6508 000:757.008 - 0.003ms returns 79607
T6508 000:757.012 JLINK_CORE_GetFound()
T6508 000:757.015 - 0.003ms returns 0xE0000FF
T6508 000:757.020 JLINK_GetDebugInfo(0x100 = JLINKARM_ROM_TABLE_ADDR_INDEX)
T6508 000:757.025   Value=0xE00FF000
T6508 000:757.029 - 0.009ms returns 0
T6508 000:757.979 JLINK_GetDebugInfo(0x100 = JLINKARM_ROM_TABLE_ADDR_INDEX)
T6508 000:757.986   Value=0xE00FF000
T6508 000:757.991 - 0.012ms returns 0
T6508 000:757.995 JLINK_GetDebugInfo(0x101 = JLINKARM_DEBUG_INFO_ETM_ADDR_INDEX)
T6508 000:757.998   Value=0xE0041000
T6508 000:758.003 - 0.007ms returns 0
T6508 000:758.006 JLINK_GetDebugInfo(0x102 = JLINKARM_DEBUG_INFO_MTB_ADDR_INDEX)
T6508 000:758.009   Value=0x00000000
T6508 000:758.014 - 0.007ms returns 0
T6508 000:758.017 JLINK_GetDebugInfo(0x103 = JLINKARM_DEBUG_INFO_TPIU_ADDR_INDEX)
T6508 000:758.020   Value=0xE0040000
T6508 000:758.025 - 0.007ms returns 0
T6508 000:758.028 JLINK_GetDebugInfo(0x104 = JLINKARM_DEBUG_INFO_ITM_ADDR_INDEX)
T6508 000:758.031   Value=0xE0000000
T6508 000:758.035 - 0.007ms returns 0
T6508 000:758.039 JLINK_GetDebugInfo(0x105 = JLINKARM_DEBUG_INFO_DWT_ADDR_INDEX)
T6508 000:758.042   Value=0xE0001000
T6508 000:758.046 - 0.007ms returns 0
T6508 000:758.050 JLINK_GetDebugInfo(0x106 = JLINKARM_DEBUG_INFO_FPB_ADDR_INDEX)
T6508 000:758.053   Value=0xE0002000
T6508 000:758.057 - 0.007ms returns 0
T6508 000:758.061 JLINK_GetDebugInfo(0x107 = JLINKARM_DEBUG_INFO_NVIC_ADDR_INDEX)
T6508 000:758.064   Value=0xE000E000
T6508 000:758.068 - 0.007ms returns 0
T6508 000:758.072 JLINK_GetDebugInfo(0x10C = JLINKARM_DEBUG_INFO_DBG_ADDR_INDEX)
T6508 000:758.075   Value=0xE000EDF0
T6508 000:758.079 - 0.007ms returns 0
T6508 000:758.084 JLINK_ReadMemU32(0xE000EF40, 0x1 Items)
T6508 000:758.106   CPU_ReadMem(4 bytes @ 0xE000EF40)
T6508 000:758.329   Data:  21 00 11 10
T6508 000:758.335 - 0.251ms returns 1 (0x1)
T6508 000:758.373 JLINK_ReadMemU32(0xE000EF44, 0x1 Items)
T6508 000:758.378   CPU_ReadMem(4 bytes @ 0xE000EF44)
T6508 000:758.645   Data:  11 00 00 11
T6508 000:758.650 - 0.277ms returns 1 (0x1)
T6508 000:758.654 JLINK_ReadMemU32(0xE000ED00, 0x1 Items)
T6508 000:758.658   CPU_ReadMem(4 bytes @ 0xE000ED00)
T6508 000:758.877   Data:  41 C2 0F 41
T6508 000:758.882   Debug reg: CPUID
T6508 000:758.887 - 0.232ms returns 1 (0x1)
T6508 000:758.891 JLINK_HasError()
T6508 000:758.896 JLINK_SetResetType(JLINKARM_CM3_RESET_TYPE_NORMAL)
T6508 000:758.900 - 0.003ms returns JLINKARM_CM3_RESET_TYPE_NORMAL
T6508 000:758.903 JLINK_Reset()
T6508 000:758.912   CPU is running
T6508 000:758.918   CPU_WriteMem(4 bytes @ 0xE000EDF0)
T6508 000:759.153   CPU is running
T6508 000:759.157   CPU_WriteMem(4 bytes @ 0xE000EDFC)
T6508 000:760.320   Reset: Halt core after reset via DEMCR.VC_CORERESET.
T6508 000:761.545   Reset: Reset device via AIRCR.SYSRESETREQ.
T6508 000:761.554   CPU is running
T6508 000:761.561   CPU_WriteMem(4 bytes @ 0xE000ED0C)
T6508 000:816.394   CPU_ReadMem(4 bytes @ 0xE000EDF0)
T6508 000:816.937   CPU_ReadMem(4 bytes @ 0xE000EDF0)
T6508 000:819.922   CPU_WriteMem(4 bytes @ 0xE000EDFC)
T6508 000:825.759   CPU_ReadMem(4 bytes @ 0xE000EDF0)
T6508 000:828.265   CPU_WriteMem(4 bytes @ 0xE0002000)
T6508 000:828.601   CPU_ReadMem(4 bytes @ 0xE000EDFC)
T6508 000:828.932   CPU_ReadMem(4 bytes @ 0xE0001000)
T6508 000:829.255 - 70.350ms
T6508 000:829.364 JLINK_Halt()
T6508 000:829.379 - 0.015ms returns 0x00
T6508 000:829.394 JLINK_IsHalted()
T6508 000:829.408 - 0.013ms returns TRUE
T6508 000:829.425 JLINK_ReadMemU32(0xE000EDF0, 0x1 Items)
T6508 000:829.448   CPU_ReadMem(4 bytes @ 0xE000EDF0)
T6508 000:829.742   Data:  03 00 03 00
T6508 000:829.761   Debug reg: DHCSR
T6508 000:829.779 - 0.355ms returns 1 (0x1)
T6508 000:829.796 JLINK_WriteU32_64(0xE000EDF0, 0xA05F0003)
T6508 000:829.808   Debug reg: DHCSR
T6508 000:830.620   CPU_WriteMem(4 bytes @ 0xE000EDF0)
T6508 000:831.064 - 1.268ms returns 0 (0x00000000)
T6508 000:831.086 JLINK_WriteU32_64(0xE000EDFC, 0x01000000)
T6508 000:831.100   Debug reg: DEMCR
T6508 000:831.124   CPU_WriteMem(4 bytes @ 0xE000EDFC)
T6508 000:831.474 - 0.387ms returns 0 (0x00000000)
T6508 000:843.075 JLINK_GetHWStatus(...)
T6508 000:843.390 - 0.314ms returns 0
T6508 000:847.434 JLINK_GetNumBPUnits(Type = 0xFFFFFF00)
T6508 000:847.446 - 0.012ms returns 0x06
T6508 000:847.452 JLINK_GetNumBPUnits(Type = 0xF0)
T6508 000:847.456 - 0.004ms returns 0x2000
T6508 000:847.460 JLINK_GetNumWPUnits()
T6508 000:847.467 - 0.006ms returns 4
T6508 000:851.280 JLINK_GetSpeed()
T6508 000:851.294 - 0.014ms returns 4000
T6508 000:854.002 JLINK_ReadMemU32(0xE000E004, 0x1 Items)
T6508 000:854.026   CPU_ReadMem(4 bytes @ 0xE000E004)
T6508 000:854.394   Data:  03 00 00 00
T6508 000:854.410 - 0.408ms returns 1 (0x1)
T6508 000:854.424 JLINK_ReadMemU32(0xE000E004, 0x1 Items)
T6508 000:854.434   CPU_ReadMem(4 bytes @ 0xE000E004)
T6508 000:854.738   Data:  03 00 00 00
T6508 000:854.752 - 0.327ms returns 1 (0x1)
T6508 000:854.763 JLINK_WriteMem(0xE0001000, 0x1C Bytes, ...)
T6508 000:854.768   Data:  01 00 00 00 00 00 00 00 00 00 00 00 00 00 00 00 ...
T6508 000:854.786   CPU_WriteMem(28 bytes @ 0xE0001000)
T6508 000:855.354 - 0.591ms returns 0x1C
T6508 000:855.372 JLINK_ReadMem(0xE0001000, 0x1C Bytes, ...)
T6508 000:855.382   CPU_ReadMem(28 bytes @ 0xE0001000)
T6508 000:855.785   Data:  01 00 00 40 00 00 00 00 00 00 00 00 00 00 00 00 ...
T6508 000:855.800 - 0.428ms returns 0
T6508 000:855.914 JLINK_Halt()
T6508 000:855.928 - 0.013ms returns 0x00
T6508 000:855.934 JLINK_IsHalted()
T6508 000:855.939 - 0.005ms returns TRUE
T6508 000:858.811 JLINK_WriteMem(0x20000000, 0x1D4 Bytes, ...)
T6508 000:858.818   Data:  00 BE 0A E0 0D 78 2D 06 68 40 08 24 40 00 00 D3 ...
T6508 000:859.045   CPU_WriteMem(468 bytes @ 0x20000000)
T6508 000:861.089 - 2.278ms returns 0x1D4
T6508 000:861.124 JLINK_HasError()
T6508 000:861.142 JLINK_WriteReg(R0, 0x08000000)
T6508 000:861.180 - 0.049ms returns 0
T6508 000:861.186 JLINK_WriteReg(R1, 0x00B71B00)
T6508 000:861.190 - 0.004ms returns 0
T6508 000:861.195 JLINK_WriteReg(R2, 0x00000001)
T6508 000:861.199 - 0.003ms returns 0
T6508 000:861.203 JLINK_WriteReg(R3, 0x00000000)
T6508 000:861.207 - 0.004ms returns 0
T6508 000:861.212 JLINK_WriteReg(R4, 0x00000000)
T6508 000:861.216 - 0.003ms returns 0
T6508 000:861.220 JLINK_WriteReg(R5, 0x00000000)
T6508 000:861.224 - 0.003ms returns 0
T6508 000:861.229 JLINK_WriteReg(R6, 0x00000000)
T6508 000:861.233 - 0.003ms returns 0
T6508 000:861.237 JLINK_WriteReg(R7, 0x00000000)
T6508 000:861.241 - 0.003ms returns 0
T6508 000:861.246 JLINK_WriteReg(R8, 0x00000000)
T6508 000:861.249 - 0.004ms returns 0
T6508 000:861.254 JLINK_WriteReg(R9, 0x200001C0)
T6508 000:861.258 - 0.003ms returns 0
T6508 000:861.262 JLINK_WriteReg(R10, 0x00000000)
T6508 000:861.266 - 0.004ms returns 0
T6508 000:861.271 JLINK_WriteReg(R11, 0x00000000)
T6508 000:861.275 - 0.003ms returns 0
T6508 000:861.279 JLINK_WriteReg(R12, 0x00000000)
T6508 000:861.283 - 0.004ms returns 0
T6508 000:861.288 JLINK_WriteReg(R13 (SP), 0x20008000)
T6508 000:861.293 - 0.004ms returns 0
T6508 000:861.297 JLINK_WriteReg(R14, 0x20000001)
T6508 000:861.301 - 0.003ms returns 0
T6508 000:861.310 JLINK_WriteReg(R15 (PC), 0x20000020)
T6508 000:861.314 - 0.008ms returns 0
T6508 000:861.319 JLINK_WriteReg(XPSR, 0x01000000)
T6508 000:861.323 - 0.004ms returns 0
T6508 000:861.327 JLINK_WriteReg(MSP, 0x20008000)
T6508 000:861.331 - 0.004ms returns 0
T6508 000:861.336 JLINK_WriteReg(PSP, 0x20008000)
T6508 000:861.340 - 0.004ms returns 0
T6508 000:861.345 JLINK_WriteReg(CFBP, 0x00000000)
T6508 000:861.348 - 0.003ms returns 0
T6508 000:861.354 JLINK_SetBPEx(Addr = 0x20000000, Type = 0xFFFFFFF2)
T6508 000:861.362   CPU_ReadMem(2 bytes @ 0x20000000)
T6508 000:861.626 - 0.272ms returns 0x00000001
T6508 000:861.632 JLINK_Go()
T6508 000:861.638   CPU_WriteMem(2 bytes @ 0x20000000)
T6508 000:861.882   CPU_ReadMem(4 bytes @ 0xE0001000)
T6508 000:862.131   CPU_WriteMem(4 bytes @ 0xE0002008)
T6508 000:862.137   CPU_WriteMem(4 bytes @ 0xE000200C)
T6508 000:862.143   CPU_WriteMem(4 bytes @ 0xE0002010)
T6508 000:862.148   CPU_WriteMem(4 bytes @ 0xE0002014)
T6508 000:862.154   CPU_WriteMem(4 bytes @ 0xE0002018)
T6508 000:862.159   CPU_WriteMem(4 bytes @ 0xE000201C)
T6508 000:863.113   CPU_WriteMem(4 bytes @ 0xE0001004)
T6508 000:866.711   Memory map 'after startup completion point' is active
T6508 000:866.728 - 5.094ms
T6508 000:866.735 JLINK_IsHalted()
T6508 000:868.579   CPU_ReadMem(2 bytes @ 0x20000000)
T6508 000:868.925 - 2.189ms returns TRUE
T6508 000:868.933 JLINK_ReadReg(R15 (PC))
T6508 000:868.939 - 0.005ms returns 0x20000000
T6508 000:868.944 JLINK_ClrBPEx(BPHandle = 0x00000001)
T6508 000:868.950 - 0.005ms returns 0x00
T6508 000:868.955 JLINK_ReadReg(R0)
T6508 000:868.960 - 0.004ms returns 0x00000000
T6508 000:869.370 JLINK_HasError()
T6508 000:869.381 JLINK_WriteReg(R0, 0x08000000)
T6508 000:869.387 - 0.006ms returns 0
T6508 000:869.392 JLINK_WriteReg(R1, 0x00B71B00)
T6508 000:869.397 - 0.004ms returns 0
T6508 000:869.402 JLINK_WriteReg(R2, 0x00000001)
T6508 000:869.407 - 0.004ms returns 0
T6508 000:869.412 JLINK_WriteReg(R3, 0x00000000)
T6508 000:869.416 - 0.004ms returns 0
T6508 000:869.422 JLINK_WriteReg(R4, 0x00000000)
T6508 000:869.426 - 0.004ms returns 0
T6508 000:869.431 JLINK_WriteReg(R5, 0x00000000)
T6508 000:869.436 - 0.004ms returns 0
T6508 000:869.441 JLINK_WriteReg(R6, 0x00000000)
T6508 000:869.445 - 0.004ms returns 0
T6508 000:869.450 JLINK_WriteReg(R7, 0x00000000)
T6508 000:869.454 - 0.004ms returns 0
T6508 000:869.460 JLINK_WriteReg(R8, 0x00000000)
T6508 000:869.464 - 0.004ms returns 0
T6508 000:869.469 JLINK_WriteReg(R9, 0x200001C0)
T6508 000:869.473 - 0.004ms returns 0
T6508 000:869.479 JLINK_WriteReg(R10, 0x00000000)
T6508 000:869.483 - 0.004ms returns 0
T6508 000:869.488 JLINK_WriteReg(R11, 0x00000000)
T6508 000:869.493 - 0.004ms returns 0
T6508 000:869.499 JLINK_WriteReg(R12, 0x00000000)
T6508 000:869.508 - 0.009ms returns 0
T6508 000:869.513 JLINK_WriteReg(R13 (SP), 0x20008000)
T6508 000:869.518 - 0.005ms returns 0
T6508 000:869.523 JLINK_WriteReg(R14, 0x20000001)
T6508 000:869.527 - 0.004ms returns 0
T6508 000:869.532 JLINK_WriteReg(R15 (PC), 0x20000090)
T6508 000:869.537 - 0.004ms returns 0
T6508 000:869.542 JLINK_WriteReg(XPSR, 0x01000000)
T6508 000:869.546 - 0.004ms returns 0
T6508 000:869.551 JLINK_WriteReg(MSP, 0x20008000)
T6508 000:869.555 - 0.004ms returns 0
T6508 000:869.560 JLINK_WriteReg(PSP, 0x20008000)
T6508 000:869.565 - 0.004ms returns 0
T6508 000:869.570 JLINK_WriteReg(CFBP, 0x00000000)
T6508 000:869.574 - 0.004ms returns 0
T6508 000:869.580 JLINK_SetBPEx(Addr = 0x20000000, Type = 0xFFFFFFF2)
T6508 000:869.585 - 0.005ms returns 0x00000002
T6508 000:869.590 JLINK_Go()
T6508 000:869.601   CPU_ReadMem(4 bytes @ 0xE0001000)
T6508 000:871.697 - 2.106ms
T6508 000:871.706 JLINK_IsHalted()
T6508 000:871.916 - 0.209ms returns FALSE
T6508 000:871.923 JLINK_HasError()
T6508 000:885.276 JLINK_IsHalted()
T6508 000:885.581 - 0.304ms returns FALSE
T6508 000:885.593 JLINK_HasError()
T6508 000:886.693 JLINK_IsHalted()
T6508 000:887.031 - 0.338ms returns FALSE
T6508 000:887.042 JLINK_HasError()
T6508 000:888.148 JLINK_IsHalted()
T6508 000:888.421 - 0.272ms returns FALSE
T6508 000:888.432 JLINK_HasError()
T6508 000:890.136 JLINK_IsHalted()
T6508 000:890.518 - 0.381ms returns FALSE
T6508 000:890.529 JLINK_HasError()
T6508 000:892.034 JLINK_IsHalted()
T6508 000:892.317 - 0.282ms returns FALSE
T6508 000:892.329 JLINK_HasError()
T6508 000:894.112 JLINK_IsHalted()
T6508 000:895.985   CPU_ReadMem(2 bytes @ 0x20000000)
T6508 000:896.197 - 2.084ms returns TRUE
T6508 000:896.203 JLINK_ReadReg(R15 (PC))
T6508 000:896.209 - 0.005ms returns 0x20000000
T6508 000:896.213 JLINK_ClrBPEx(BPHandle = 0x00000002)
T6508 000:896.217 - 0.004ms returns 0x00
T6508 000:896.221 JLINK_ReadReg(R0)
T6508 000:896.225 - 0.003ms returns 0x00000000
T6508 000:951.662 JLINK_HasError()
T6508 000:951.733 JLINK_WriteReg(R0, 0x00000001)
T6508 000:951.758 - 0.024ms returns 0
T6508 000:951.841 JLINK_WriteReg(R1, 0x00B71B00)
T6508 000:951.857 - 0.015ms returns 0
T6508 000:951.874 JLINK_WriteReg(R2, 0x00000001)
T6508 000:951.889 - 0.015ms returns 0
T6508 000:951.905 JLINK_WriteReg(R3, 0x00000000)
T6508 000:951.920 - 0.014ms returns 0
T6508 000:951.937 JLINK_WriteReg(R4, 0x00000000)
T6508 000:951.951 - 0.014ms returns 0
T6508 000:951.968 JLINK_WriteReg(R5, 0x00000000)
T6508 000:951.983 - 0.014ms returns 0
T6508 000:951.999 JLINK_WriteReg(R6, 0x00000000)
T6508 000:952.014 - 0.014ms returns 0
T6508 000:952.033 JLINK_WriteReg(R7, 0x00000000)
T6508 000:952.047 - 0.014ms returns 0
T6508 000:952.064 JLINK_WriteReg(R8, 0x00000000)
T6508 000:952.078 - 0.014ms returns 0
T6508 000:952.095 JLINK_WriteReg(R9, 0x200001C0)
T6508 000:952.110 - 0.014ms returns 0
T6508 000:952.127 JLINK_WriteReg(R10, 0x00000000)
T6508 000:952.141 - 0.014ms returns 0
T6508 000:952.158 JLINK_WriteReg(R11, 0x00000000)
T6508 000:952.172 - 0.014ms returns 0
T6508 000:952.189 JLINK_WriteReg(R12, 0x00000000)
T6508 000:952.204 - 0.015ms returns 0
T6508 000:952.221 JLINK_WriteReg(R13 (SP), 0x20008000)
T6508 000:952.236 - 0.015ms returns 0
T6508 000:952.251 JLINK_WriteReg(R14, 0x20000001)
T6508 000:952.264 - 0.012ms returns 0
T6508 000:952.279 JLINK_WriteReg(R15 (PC), 0x2000007A)
T6508 000:952.292 - 0.013ms returns 0
T6508 000:952.308 JLINK_WriteReg(XPSR, 0x01000000)
T6508 000:952.321 - 0.013ms returns 0
T6508 000:952.336 JLINK_WriteReg(MSP, 0x20008000)
T6508 000:952.350 - 0.014ms returns 0
T6508 000:952.366 JLINK_WriteReg(PSP, 0x20008000)
T6508 000:952.378 - 0.013ms returns 0
T6508 000:952.394 JLINK_WriteReg(CFBP, 0x00000000)
T6508 000:952.406 - 0.012ms returns 0
T6508 000:952.424 JLINK_SetBPEx(Addr = 0x20000000, Type = 0xFFFFFFF2)
T6508 000:952.441 - 0.018ms returns 0x00000003
T6508 000:952.457 JLINK_Go()
T6508 000:952.501   CPU_ReadMem(4 bytes @ 0xE0001000)
T6508 000:956.056 - 3.598ms
T6508 000:956.108 JLINK_IsHalted()
T6508 000:958.360   CPU_ReadMem(2 bytes @ 0x20000000)
T6508 000:958.775 - 2.665ms returns TRUE
T6508 000:958.817 JLINK_ReadReg(R15 (PC))
T6508 000:958.832 - 0.015ms returns 0x20000000
T6508 000:958.845 JLINK_ClrBPEx(BPHandle = 0x00000003)
T6508 000:958.855 - 0.011ms returns 0x00
T6508 000:958.948 JLINK_ReadReg(R0)
T6508 000:958.963 - 0.014ms returns 0x00000000
T6508 000:964.950 JLINK_WriteMem(0x20000000, 0x1D4 Bytes, ...)
T6508 000:964.961   Data:  00 BE 0A E0 0D 78 2D 06 68 40 08 24 40 00 00 D3 ...
T6508 000:964.978   CPU_WriteMem(468 bytes @ 0x20000000)
T6508 000:967.270 - 2.319ms returns 0x1D4
T6508 000:967.311 JLINK_HasError()
T6508 000:967.320 JLINK_WriteReg(R0, 0x08000000)
T6508 000:967.329 - 0.008ms returns 0
T6508 000:967.335 JLINK_WriteReg(R1, 0x00B71B00)
T6508 000:967.341 - 0.005ms returns 0
T6508 000:967.347 JLINK_WriteReg(R2, 0x00000002)
T6508 000:967.352 - 0.005ms returns 0
T6508 000:967.359 JLINK_WriteReg(R3, 0x00000000)
T6508 000:967.364 - 0.005ms returns 0
T6508 000:967.370 JLINK_WriteReg(R4, 0x00000000)
T6508 000:967.376 - 0.005ms returns 0
T6508 000:967.382 JLINK_WriteReg(R5, 0x00000000)
T6508 000:967.387 - 0.005ms returns 0
T6508 000:967.393 JLINK_WriteReg(R6, 0x00000000)
T6508 000:967.399 - 0.005ms returns 0
T6508 000:967.405 JLINK_WriteReg(R7, 0x00000000)
T6508 000:967.410 - 0.005ms returns 0
T6508 000:967.420 JLINK_WriteReg(R8, 0x00000000)
T6508 000:967.426 - 0.009ms returns 0
T6508 000:967.432 JLINK_WriteReg(R9, 0x200001C0)
T6508 000:967.438 - 0.005ms returns 0
T6508 000:967.445 JLINK_WriteReg(R10, 0x00000000)
T6508 000:967.450 - 0.005ms returns 0
T6508 000:967.457 JLINK_WriteReg(R11, 0x00000000)
T6508 000:967.462 - 0.005ms returns 0
T6508 000:967.469 JLINK_WriteReg(R12, 0x00000000)
T6508 000:967.474 - 0.005ms returns 0
T6508 000:967.481 JLINK_WriteReg(R13 (SP), 0x20008000)
T6508 000:967.487 - 0.006ms returns 0
T6508 000:967.494 JLINK_WriteReg(R14, 0x20000001)
T6508 000:967.499 - 0.005ms returns 0
T6508 000:967.506 JLINK_WriteReg(R15 (PC), 0x20000020)
T6508 000:967.511 - 0.005ms returns 0
T6508 000:967.518 JLINK_WriteReg(XPSR, 0x01000000)
T6508 000:967.524 - 0.005ms returns 0
T6508 000:967.530 JLINK_WriteReg(MSP, 0x20008000)
T6508 000:967.536 - 0.005ms returns 0
T6508 000:967.542 JLINK_WriteReg(PSP, 0x20008000)
T6508 000:967.548 - 0.005ms returns 0
T6508 000:967.554 JLINK_WriteReg(CFBP, 0x00000000)
T6508 000:967.560 - 0.005ms returns 0
T6508 000:967.567 JLINK_SetBPEx(Addr = 0x20000000, Type = 0xFFFFFFF2)
T6508 000:967.578   CPU_ReadMem(2 bytes @ 0x20000000)
T6508 000:968.185 - 0.617ms returns 0x00000004
T6508 000:968.204 JLINK_Go()
T6508 000:968.214   CPU_WriteMem(2 bytes @ 0x20000000)
T6508 000:968.672   CPU_ReadMem(4 bytes @ 0xE0001000)
T6508 000:971.322 - 3.117ms
T6508 000:971.345 JLINK_IsHalted()
T6508 000:973.328   CPU_ReadMem(2 bytes @ 0x20000000)
T6508 000:973.629 - 2.283ms returns TRUE
T6508 000:973.642 JLINK_ReadReg(R15 (PC))
T6508 000:973.653 - 0.010ms returns 0x20000000
T6508 000:973.662 JLINK_ClrBPEx(BPHandle = 0x00000004)
T6508 000:973.670 - 0.008ms returns 0x00
T6508 000:973.679 JLINK_ReadReg(R0)
T6508 000:973.686 - 0.007ms returns 0x00000000
T6508 000:974.214 JLINK_WriteMem(0x200001D4, 0x400 Bytes, ...)
T6508 000:974.228   Data:  78 A1 00 20 C1 02 00 08 CD F4 00 08 95 C2 00 08 ...
T6508 000:974.253   CPU_WriteMem(1024 bytes @ 0x200001D4)
T6508 000:977.998 - 3.783ms returns 0x400
T6508 000:978.029 JLINK_HasError()
T6508 000:978.043 JLINK_WriteReg(R0, 0x08000000)
T6508 000:978.057 - 0.014ms returns 0
T6508 000:978.067 JLINK_WriteReg(R1, 0x00000400)
T6508 000:978.076 - 0.009ms returns 0
T6508 000:978.087 JLINK_WriteReg(R2, 0x200001D4)
T6508 000:978.095 - 0.008ms returns 0
T6508 000:978.105 JLINK_WriteReg(R3, 0x00000000)
T6508 000:978.114 - 0.008ms returns 0
T6508 000:978.124 JLINK_WriteReg(R4, 0x00000000)
T6508 000:978.133 - 0.008ms returns 0
T6508 000:978.143 JLINK_WriteReg(R5, 0x00000000)
T6508 000:978.151 - 0.008ms returns 0
T6508 000:978.161 JLINK_WriteReg(R6, 0x00000000)
T6508 000:978.180 - 0.018ms returns 0
T6508 000:978.190 JLINK_WriteReg(R7, 0x00000000)
T6508 000:978.199 - 0.008ms returns 0
T6508 000:978.209 JLINK_WriteReg(R8, 0x00000000)
T6508 000:978.218 - 0.008ms returns 0
T6508 000:978.228 JLINK_WriteReg(R9, 0x200001C0)
T6508 000:978.236 - 0.008ms returns 0
T6508 000:978.247 JLINK_WriteReg(R10, 0x00000000)
T6508 000:978.255 - 0.008ms returns 0
T6508 000:978.265 JLINK_WriteReg(R11, 0x00000000)
T6508 000:978.274 - 0.008ms returns 0
T6508 000:978.284 JLINK_WriteReg(R12, 0x00000000)
T6508 000:978.292 - 0.008ms returns 0
T6508 000:978.303 JLINK_WriteReg(R13 (SP), 0x20008000)
T6508 000:978.312 - 0.009ms returns 0
T6508 000:978.322 JLINK_WriteReg(R14, 0x20000001)
T6508 000:978.330 - 0.008ms returns 0
T6508 000:978.341 JLINK_WriteReg(R15 (PC), 0x2000012E)
T6508 000:978.349 - 0.009ms returns 0
T6508 000:978.360 JLINK_WriteReg(XPSR, 0x01000000)
T6508 000:978.368 - 0.008ms returns 0
T6508 000:978.378 JLINK_WriteReg(MSP, 0x20008000)
T6508 000:978.387 - 0.008ms returns 0
T6508 000:978.397 JLINK_WriteReg(PSP, 0x20008000)
T6508 000:978.406 - 0.008ms returns 0
T6508 000:978.416 JLINK_WriteReg(CFBP, 0x00000000)
T6508 000:978.424 - 0.008ms returns 0
T6508 000:978.436 JLINK_SetBPEx(Addr = 0x20000000, Type = 0xFFFFFFF2)
T6508 000:978.446 - 0.011ms returns 0x00000005
T6508 000:978.456 JLINK_Go()
T6508 000:978.477   CPU_ReadMem(4 bytes @ 0xE0001000)
T6508 000:981.002 - 2.544ms
T6508 000:981.036 JLINK_IsHalted()
T6508 000:981.368 - 0.331ms returns FALSE
T6508 000:981.402 JLINK_HasError()
T6508 000:986.395 JLINK_IsHalted()
T6508 000:986.699 - 0.303ms returns FALSE
T6508 000:986.712 JLINK_HasError()
T6508 000:988.498 JLINK_IsHalted()
T6508 000:988.855 - 0.355ms returns FALSE
T6508 000:988.872 JLINK_HasError()
T6508 000:990.457 JLINK_IsHalted()
T6508 000:990.880 - 0.421ms returns FALSE
T6508 000:990.911 JLINK_HasError()
T6508 000:992.954 JLINK_IsHalted()
T6508 000:995.181   CPU_ReadMem(2 bytes @ 0x20000000)
T6508 000:995.495 - 2.540ms returns TRUE
T6508 000:995.512 JLINK_ReadReg(R15 (PC))
T6508 000:995.526 - 0.014ms returns 0x20000000
T6508 000:995.537 JLINK_ClrBPEx(BPHandle = 0x00000005)
T6508 000:995.547 - 0.010ms returns 0x00
T6508 000:995.558 JLINK_ReadReg(R0)
T6508 000:995.567 - 0.009ms returns 0x00000000
T6508 000:996.404 JLINK_WriteMem(0x200001D4, 0x400 Bytes, ...)
T6508 000:996.419   Data:  5E 46 4F F0 00 0B 5B EA 06 0C 08 BF 4F F0 01 0B ...
T6508 000:996.442   CPU_WriteMem(1024 bytes @ 0x200001D4)
T6508 001:000.050 - 3.645ms returns 0x400
T6508 001:000.081 JLINK_HasError()
T6508 001:000.095 JLINK_WriteReg(R0, 0x08000400)
T6508 001:000.110 - 0.016ms returns 0
T6508 001:000.122 JLINK_WriteReg(R1, 0x00000400)
T6508 001:000.133 - 0.011ms returns 0
T6508 001:000.145 JLINK_WriteReg(R2, 0x200001D4)
T6508 001:000.155 - 0.010ms returns 0
T6508 001:000.167 JLINK_WriteReg(R3, 0x00000000)
T6508 001:000.177 - 0.010ms returns 0
T6508 001:000.188 JLINK_WriteReg(R4, 0x00000000)
T6508 001:000.198 - 0.009ms returns 0
T6508 001:000.210 JLINK_WriteReg(R5, 0x00000000)
T6508 001:000.220 - 0.010ms returns 0
T6508 001:000.231 JLINK_WriteReg(R6, 0x00000000)
T6508 001:000.241 - 0.010ms returns 0
T6508 001:000.252 JLINK_WriteReg(R7, 0x00000000)
T6508 001:000.262 - 0.009ms returns 0
T6508 001:000.274 JLINK_WriteReg(R8, 0x00000000)
T6508 001:000.284 - 0.010ms returns 0
T6508 001:000.295 JLINK_WriteReg(R9, 0x200001C0)
T6508 001:000.305 - 0.009ms returns 0
T6508 001:000.317 JLINK_WriteReg(R10, 0x00000000)
T6508 001:000.327 - 0.010ms returns 0
T6508 001:000.339 JLINK_WriteReg(R11, 0x00000000)
T6508 001:000.349 - 0.010ms returns 0
T6508 001:000.360 JLINK_WriteReg(R12, 0x00000000)
T6508 001:000.370 - 0.010ms returns 0
T6508 001:000.382 JLINK_WriteReg(R13 (SP), 0x20008000)
T6508 001:000.393 - 0.011ms returns 0
T6508 001:000.405 JLINK_WriteReg(R14, 0x20000001)
T6508 001:000.415 - 0.010ms returns 0
T6508 001:000.427 JLINK_WriteReg(R15 (PC), 0x2000012E)
T6508 001:000.437 - 0.010ms returns 0
T6508 001:000.448 JLINK_WriteReg(XPSR, 0x01000000)
T6508 001:000.465 - 0.016ms returns 0
T6508 001:000.481 JLINK_WriteReg(MSP, 0x20008000)
T6508 001:000.491 - 0.010ms returns 0
T6508 001:000.503 JLINK_WriteReg(PSP, 0x20008000)
T6508 001:000.513 - 0.010ms returns 0
T6508 001:000.524 JLINK_WriteReg(CFBP, 0x00000000)
T6508 001:000.534 - 0.010ms returns 0
T6508 001:000.547 JLINK_SetBPEx(Addr = 0x20000000, Type = 0xFFFFFFF2)
T6508 001:000.560 - 0.013ms returns 0x00000006
T6508 001:000.572 JLINK_Go()
T6508 001:000.597   CPU_ReadMem(4 bytes @ 0xE0001000)
T6508 001:003.019 - 2.445ms
T6508 001:003.059 JLINK_IsHalted()
T6508 001:003.372 - 0.312ms returns FALSE
T6508 001:003.388 JLINK_HasError()
T6508 001:005.422 JLINK_IsHalted()
T6508 001:005.981 - 0.559ms returns FALSE
T6508 001:006.001 JLINK_HasError()
T6508 001:007.401 JLINK_IsHalted()
T6508 001:007.704 - 0.304ms returns FALSE
T6508 001:007.722 JLINK_HasError()
T6508 001:009.764 JLINK_IsHalted()
T6508 001:010.175 - 0.411ms returns FALSE
T6508 001:010.213 JLINK_HasError()
T6508 001:012.266 JLINK_IsHalted()
T6508 001:012.731 - 0.464ms returns FALSE
T6508 001:012.754 JLINK_HasError()
T6508 001:014.780 JLINK_IsHalted()
T6508 001:016.836   CPU_ReadMem(2 bytes @ 0x20000000)
T6508 001:017.192 - 2.410ms returns TRUE
T6508 001:017.242 JLINK_ReadReg(R15 (PC))
T6508 001:017.263 - 0.021ms returns 0x20000000
T6508 001:017.280 JLINK_ClrBPEx(BPHandle = 0x00000006)
T6508 001:017.295 - 0.015ms returns 0x00
T6508 001:017.311 JLINK_ReadReg(R0)
T6508 001:017.325 - 0.014ms returns 0x00000000
T6508 001:018.434 JLINK_WriteMem(0x200001D4, 0x400 Bytes, ...)
T6508 001:018.454   Data:  61 70 20 6D 65 6D 6F 72 79 20 63 6F 72 72 75 70 ...
T6508 001:018.486   CPU_WriteMem(1024 bytes @ 0x200001D4)
T6508 001:022.180 - 3.745ms returns 0x400
T6508 001:022.230 JLINK_HasError()
T6508 001:022.250 JLINK_WriteReg(R0, 0x08000800)
T6508 001:022.271 - 0.022ms returns 0
T6508 001:022.287 JLINK_WriteReg(R1, 0x00000400)
T6508 001:022.301 - 0.013ms returns 0
T6508 001:022.316 JLINK_WriteReg(R2, 0x200001D4)
T6508 001:022.329 - 0.013ms returns 0
T6508 001:022.344 JLINK_WriteReg(R3, 0x00000000)
T6508 001:022.357 - 0.013ms returns 0
T6508 001:022.372 JLINK_WriteReg(R4, 0x00000000)
T6508 001:022.385 - 0.013ms returns 0
T6508 001:022.400 JLINK_WriteReg(R5, 0x00000000)
T6508 001:022.413 - 0.013ms returns 0
T6508 001:022.428 JLINK_WriteReg(R6, 0x00000000)
T6508 001:022.441 - 0.012ms returns 0
T6508 001:022.456 JLINK_WriteReg(R7, 0x00000000)
T6508 001:022.469 - 0.012ms returns 0
T6508 001:022.483 JLINK_WriteReg(R8, 0x00000000)
T6508 001:022.496 - 0.012ms returns 0
T6508 001:022.511 JLINK_WriteReg(R9, 0x200001C0)
T6508 001:022.524 - 0.013ms returns 0
T6508 001:022.540 JLINK_WriteReg(R10, 0x00000000)
T6508 001:022.553 - 0.013ms returns 0
T6508 001:022.568 JLINK_WriteReg(R11, 0x00000000)
T6508 001:022.580 - 0.013ms returns 0
T6508 001:022.595 JLINK_WriteReg(R12, 0x00000000)
T6508 001:022.608 - 0.012ms returns 0
T6508 001:022.624 JLINK_WriteReg(R13 (SP), 0x20008000)
T6508 001:022.638 - 0.014ms returns 0
T6508 001:022.653 JLINK_WriteReg(R14, 0x20000001)
T6508 001:022.666 - 0.013ms returns 0
T6508 001:022.681 JLINK_WriteReg(R15 (PC), 0x2000012E)
T6508 001:022.694 - 0.013ms returns 0
T6508 001:022.710 JLINK_WriteReg(XPSR, 0x01000000)
T6508 001:022.723 - 0.013ms returns 0
T6508 001:022.738 JLINK_WriteReg(MSP, 0x20008000)
T6508 001:022.750 - 0.012ms returns 0
T6508 001:022.765 JLINK_WriteReg(PSP, 0x20008000)
T6508 001:022.778 - 0.012ms returns 0
T6508 001:022.793 JLINK_WriteReg(CFBP, 0x00000000)
T6508 001:022.806 - 0.012ms returns 0
T6508 001:022.823 JLINK_SetBPEx(Addr = 0x20000000, Type = 0xFFFFFFF2)
T6508 001:022.838 - 0.016ms returns 0x00000007
T6508 001:022.877 JLINK_Go()
T6508 001:022.937   CPU_ReadMem(4 bytes @ 0xE0001000)
T6508 001:025.619 - 2.740ms
T6508 001:025.668 JLINK_IsHalted()
T6508 001:026.099 - 0.428ms returns FALSE
T6508 001:026.148 JLINK_HasError()
T6508 001:027.897 JLINK_IsHalted()
T6508 001:028.330 - 0.431ms returns FALSE
T6508 001:028.379 JLINK_HasError()
T6508 001:029.791 JLINK_IsHalted()
T6508 001:030.175 - 0.382ms returns FALSE
T6508 001:030.194 JLINK_HasError()
T6508 001:033.456 JLINK_IsHalted()
T6508 001:033.940 - 0.482ms returns FALSE
T6508 001:033.960 JLINK_HasError()
T6508 001:035.524 JLINK_IsHalted()
T6508 001:035.928 - 0.402ms returns FALSE
T6508 001:035.973 JLINK_HasError()
T6508 001:037.581 JLINK_IsHalted()
T6508 001:039.805   CPU_ReadMem(2 bytes @ 0x20000000)
T6508 001:040.239 - 2.656ms returns TRUE
T6508 001:040.284 JLINK_ReadReg(R15 (PC))
T6508 001:040.304 - 0.019ms returns 0x20000000
T6508 001:040.319 JLINK_ClrBPEx(BPHandle = 0x00000007)
T6508 001:040.332 - 0.013ms returns 0x00
T6508 001:040.347 JLINK_ReadReg(R0)
T6508 001:040.359 - 0.012ms returns 0x00000000
T6508 001:041.359 JLINK_WriteMem(0x200001D4, 0x400 Bytes, ...)
T6508 001:041.379   Data:  02 90 0D F0 AB FF 01 90 9D F8 0F 00 02 99 08 70 ...
T6508 001:041.408   CPU_WriteMem(1024 bytes @ 0x200001D4)
T6508 001:045.056 - 3.694ms returns 0x400
T6508 001:045.094 JLINK_HasError()
T6508 001:045.111 JLINK_WriteReg(R0, 0x08000C00)
T6508 001:045.128 - 0.017ms returns 0
T6508 001:045.142 JLINK_WriteReg(R1, 0x00000400)
T6508 001:045.153 - 0.011ms returns 0
T6508 001:045.166 JLINK_WriteReg(R2, 0x200001D4)
T6508 001:045.176 - 0.011ms returns 0
T6508 001:045.189 JLINK_WriteReg(R3, 0x00000000)
T6508 001:045.199 - 0.010ms returns 0
T6508 001:045.212 JLINK_WriteReg(R4, 0x00000000)
T6508 001:045.223 - 0.010ms returns 0
T6508 001:045.235 JLINK_WriteReg(R5, 0x00000000)
T6508 001:045.246 - 0.011ms returns 0
T6508 001:045.258 JLINK_WriteReg(R6, 0x00000000)
T6508 001:045.269 - 0.010ms returns 0
T6508 001:045.282 JLINK_WriteReg(R7, 0x00000000)
T6508 001:045.292 - 0.010ms returns 0
T6508 001:045.305 JLINK_WriteReg(R8, 0x00000000)
T6508 001:045.316 - 0.011ms returns 0
T6508 001:045.328 JLINK_WriteReg(R9, 0x200001C0)
T6508 001:045.339 - 0.010ms returns 0
T6508 001:045.352 JLINK_WriteReg(R10, 0x00000000)
T6508 001:045.362 - 0.011ms returns 0
T6508 001:045.375 JLINK_WriteReg(R11, 0x00000000)
T6508 001:045.386 - 0.010ms returns 0
T6508 001:045.398 JLINK_WriteReg(R12, 0x00000000)
T6508 001:045.409 - 0.010ms returns 0
T6508 001:045.428 JLINK_WriteReg(R13 (SP), 0x20008000)
T6508 001:045.439 - 0.012ms returns 0
T6508 001:045.452 JLINK_WriteReg(R14, 0x20000001)
T6508 001:045.463 - 0.011ms returns 0
T6508 001:045.476 JLINK_WriteReg(R15 (PC), 0x2000012E)
T6508 001:045.487 - 0.011ms returns 0
T6508 001:045.499 JLINK_WriteReg(XPSR, 0x01000000)
T6508 001:045.510 - 0.010ms returns 0
T6508 001:045.523 JLINK_WriteReg(MSP, 0x20008000)
T6508 001:045.534 - 0.010ms returns 0
T6508 001:045.546 JLINK_WriteReg(PSP, 0x20008000)
T6508 001:045.557 - 0.010ms returns 0
T6508 001:045.570 JLINK_WriteReg(CFBP, 0x00000000)
T6508 001:045.581 - 0.010ms returns 0
T6508 001:045.595 JLINK_SetBPEx(Addr = 0x20000000, Type = 0xFFFFFFF2)
T6508 001:045.608 - 0.014ms returns 0x00000008
T6508 001:045.621 JLINK_Go()
T6508 001:045.648   CPU_ReadMem(4 bytes @ 0xE0001000)
T6508 001:048.038 - 2.415ms
T6508 001:048.058 JLINK_IsHalted()
T6508 001:048.368 - 0.309ms returns FALSE
T6508 001:048.386 JLINK_HasError()
T6508 001:050.454 JLINK_IsHalted()
T6508 001:050.768 - 0.313ms returns FALSE
T6508 001:050.790 JLINK_HasError()
T6508 001:052.983 JLINK_IsHalted()
T6508 001:053.326 - 0.342ms returns FALSE
T6508 001:053.355 JLINK_HasError()
T6508 001:055.100 JLINK_IsHalted()
T6508 001:055.430 - 0.329ms returns FALSE
T6508 001:055.444 JLINK_HasError()
T6508 001:057.057 JLINK_IsHalted()
T6508 001:057.382 - 0.324ms returns FALSE
T6508 001:057.395 JLINK_HasError()
T6508 001:059.067 JLINK_IsHalted()
T6508 001:061.102   CPU_ReadMem(2 bytes @ 0x20000000)
T6508 001:061.420 - 2.352ms returns TRUE
T6508 001:061.450 JLINK_ReadReg(R15 (PC))
T6508 001:061.467 - 0.017ms returns 0x20000000
T6508 001:061.552 JLINK_ClrBPEx(BPHandle = 0x00000008)
T6508 001:061.566 - 0.014ms returns 0x00
T6508 001:061.579 JLINK_ReadReg(R0)
T6508 001:061.591 - 0.011ms returns 0x00000000
T6508 001:062.720 JLINK_WriteMem(0x200001D4, 0x400 Bytes, ...)
T6508 001:062.751   Data:  0E 00 FF E7 FF E7 FF E7 05 98 40 7E 01 28 40 F0 ...
T6508 001:062.793   CPU_WriteMem(1024 bytes @ 0x200001D4)
T6508 001:066.495 - 3.775ms returns 0x400
T6508 001:066.528 JLINK_HasError()
T6508 001:066.547 JLINK_WriteReg(R0, 0x08001000)
T6508 001:066.565 - 0.018ms returns 0
T6508 001:066.581 JLINK_WriteReg(R1, 0x00000400)
T6508 001:066.594 - 0.013ms returns 0
T6508 001:066.610 JLINK_WriteReg(R2, 0x200001D4)
T6508 001:066.623 - 0.013ms returns 0
T6508 001:066.638 JLINK_WriteReg(R3, 0x00000000)
T6508 001:066.651 - 0.013ms returns 0
T6508 001:066.666 JLINK_WriteReg(R4, 0x00000000)
T6508 001:066.679 - 0.012ms returns 0
T6508 001:066.694 JLINK_WriteReg(R5, 0x00000000)
T6508 001:066.707 - 0.012ms returns 0
T6508 001:066.722 JLINK_WriteReg(R6, 0x00000000)
T6508 001:066.734 - 0.012ms returns 0
T6508 001:066.749 JLINK_WriteReg(R7, 0x00000000)
T6508 001:066.762 - 0.012ms returns 0
T6508 001:066.777 JLINK_WriteReg(R8, 0x00000000)
T6508 001:066.790 - 0.013ms returns 0
T6508 001:066.805 JLINK_WriteReg(R9, 0x200001C0)
T6508 001:066.818 - 0.012ms returns 0
T6508 001:066.833 JLINK_WriteReg(R10, 0x00000000)
T6508 001:066.846 - 0.013ms returns 0
T6508 001:066.861 JLINK_WriteReg(R11, 0x00000000)
T6508 001:066.875 - 0.013ms returns 0
T6508 001:066.890 JLINK_WriteReg(R12, 0x00000000)
T6508 001:066.903 - 0.013ms returns 0
T6508 001:066.918 JLINK_WriteReg(R13 (SP), 0x20008000)
T6508 001:066.932 - 0.014ms returns 0
T6508 001:066.947 JLINK_WriteReg(R14, 0x20000001)
T6508 001:066.960 - 0.012ms returns 0
T6508 001:066.975 JLINK_WriteReg(R15 (PC), 0x2000012E)
T6508 001:066.988 - 0.013ms returns 0
T6508 001:067.003 JLINK_WriteReg(XPSR, 0x01000000)
T6508 001:067.016 - 0.013ms returns 0
T6508 001:067.031 JLINK_WriteReg(MSP, 0x20008000)
T6508 001:067.044 - 0.012ms returns 0
T6508 001:067.059 JLINK_WriteReg(PSP, 0x20008000)
T6508 001:067.072 - 0.013ms returns 0
T6508 001:067.087 JLINK_WriteReg(CFBP, 0x00000000)
T6508 001:067.100 - 0.012ms returns 0
T6508 001:067.117 JLINK_SetBPEx(Addr = 0x20000000, Type = 0xFFFFFFF2)
T6508 001:067.132 - 0.016ms returns 0x00000009
T6508 001:067.148 JLINK_Go()
T6508 001:067.179   CPU_ReadMem(4 bytes @ 0xE0001000)
T6508 001:069.480 - 2.329ms
T6508 001:069.521 JLINK_IsHalted()
T6508 001:069.924 - 0.401ms returns FALSE
T6508 001:069.957 JLINK_HasError()
T6508 001:071.944 JLINK_IsHalted()
T6508 001:072.319 - 0.373ms returns FALSE
T6508 001:072.352 JLINK_HasError()
T6508 001:074.068 JLINK_IsHalted()
T6508 001:074.571 - 0.501ms returns FALSE
T6508 001:074.602 JLINK_HasError()
T6508 001:076.443 JLINK_IsHalted()
T6508 001:077.063 - 0.618ms returns FALSE
T6508 001:077.093 JLINK_HasError()
T6508 001:078.446 JLINK_IsHalted()
T6508 001:079.037 - 0.589ms returns FALSE
T6508 001:079.066 JLINK_HasError()
T6508 001:080.478 JLINK_IsHalted()
T6508 001:082.685   CPU_ReadMem(2 bytes @ 0x20000000)
T6508 001:083.175 - 2.697ms returns TRUE
T6508 001:083.199 JLINK_ReadReg(R15 (PC))
T6508 001:083.218 - 0.018ms returns 0x20000000
T6508 001:083.235 JLINK_ClrBPEx(BPHandle = 0x00000009)
T6508 001:083.249 - 0.014ms returns 0x00
T6508 001:083.265 JLINK_ReadReg(R0)
T6508 001:083.279 - 0.013ms returns 0x00000000
T6508 001:084.412 JLINK_WriteMem(0x200001D4, 0x400 Bytes, ...)
T6508 001:084.433   Data:  59 FD 02 99 9D F8 1F 00 06 9A 02 EB 42 02 11 44 ...
T6508 001:084.466   CPU_WriteMem(1024 bytes @ 0x200001D4)
T6508 001:088.281 - 3.869ms returns 0x400
T6508 001:088.309 JLINK_HasError()
T6508 001:088.409 JLINK_WriteReg(R0, 0x08001400)
T6508 001:088.427 - 0.019ms returns 0
T6508 001:088.444 JLINK_WriteReg(R1, 0x00000400)
T6508 001:088.458 - 0.013ms returns 0
T6508 001:088.473 JLINK_WriteReg(R2, 0x200001D4)
T6508 001:088.486 - 0.013ms returns 0
T6508 001:088.501 JLINK_WriteReg(R3, 0x00000000)
T6508 001:088.514 - 0.012ms returns 0
T6508 001:088.529 JLINK_WriteReg(R4, 0x00000000)
T6508 001:088.542 - 0.013ms returns 0
T6508 001:088.557 JLINK_WriteReg(R5, 0x00000000)
T6508 001:088.570 - 0.013ms returns 0
T6508 001:088.585 JLINK_WriteReg(R6, 0x00000000)
T6508 001:088.606 - 0.021ms returns 0
T6508 001:088.626 JLINK_WriteReg(R7, 0x00000000)
T6508 001:088.639 - 0.012ms returns 0
T6508 001:088.654 JLINK_WriteReg(R8, 0x00000000)
T6508 001:088.667 - 0.012ms returns 0
T6508 001:088.682 JLINK_WriteReg(R9, 0x200001C0)
T6508 001:088.695 - 0.012ms returns 0
T6508 001:088.711 JLINK_WriteReg(R10, 0x00000000)
T6508 001:088.724 - 0.013ms returns 0
T6508 001:088.739 JLINK_WriteReg(R11, 0x00000000)
T6508 001:088.752 - 0.013ms returns 0
T6508 001:088.768 JLINK_WriteReg(R12, 0x00000000)
T6508 001:088.780 - 0.012ms returns 0
T6508 001:088.796 JLINK_WriteReg(R13 (SP), 0x20008000)
T6508 001:088.810 - 0.014ms returns 0
T6508 001:088.826 JLINK_WriteReg(R14, 0x20000001)
T6508 001:088.839 - 0.013ms returns 0
T6508 001:088.854 JLINK_WriteReg(R15 (PC), 0x2000012E)
T6508 001:088.867 - 0.013ms returns 0
T6508 001:088.882 JLINK_WriteReg(XPSR, 0x01000000)
T6508 001:088.895 - 0.013ms returns 0
T6508 001:088.910 JLINK_WriteReg(MSP, 0x20008000)
T6508 001:088.923 - 0.013ms returns 0
T6508 001:088.938 JLINK_WriteReg(PSP, 0x20008000)
T6508 001:088.952 - 0.013ms returns 0
T6508 001:088.967 JLINK_WriteReg(CFBP, 0x00000000)
T6508 001:088.980 - 0.013ms returns 0
T6508 001:088.997 JLINK_SetBPEx(Addr = 0x20000000, Type = 0xFFFFFFF2)
T6508 001:089.012 - 0.016ms returns 0x0000000A
T6508 001:089.027 JLINK_Go()
T6508 001:089.057   CPU_ReadMem(4 bytes @ 0xE0001000)
T6508 001:091.837 - 2.806ms
T6508 001:091.894 JLINK_IsHalted()
T6508 001:092.415 - 0.520ms returns FALSE
T6508 001:092.442 JLINK_HasError()
T6508 001:094.255 JLINK_IsHalted()
T6508 001:094.793 - 0.536ms returns FALSE
T6508 001:094.844 JLINK_HasError()
T6508 001:097.091 JLINK_IsHalted()
T6508 001:097.660 - 0.568ms returns FALSE
T6508 001:097.690 JLINK_HasError()
T6508 001:099.088 JLINK_IsHalted()
T6508 001:099.541 - 0.453ms returns FALSE
T6508 001:099.584 JLINK_HasError()
T6508 001:101.115 JLINK_IsHalted()
T6508 001:101.709 - 0.594ms returns FALSE
T6508 001:101.742 JLINK_HasError()
T6508 001:103.223 JLINK_IsHalted()
T6508 001:105.643   CPU_ReadMem(2 bytes @ 0x20000000)
T6508 001:106.312 - 3.086ms returns TRUE
T6508 001:106.386 JLINK_ReadReg(R15 (PC))
T6508 001:106.417 - 0.030ms returns 0x20000000
T6508 001:106.441 JLINK_ClrBPEx(BPHandle = 0x0000000A)
T6508 001:106.462 - 0.020ms returns 0x00
T6508 001:106.485 JLINK_ReadReg(R0)
T6508 001:106.505 - 0.019ms returns 0x00000000
T6508 001:108.245 JLINK_WriteMem(0x200001D4, 0x400 Bytes, ...)
T6508 001:108.271   Data:  59 FB 16 98 80 68 02 F0 CB FB 16 98 40 68 ED 21 ...
T6508 001:108.311   CPU_WriteMem(1024 bytes @ 0x200001D4)
T6508 001:112.016 - 3.771ms returns 0x400
T6508 001:112.043 JLINK_HasError()
T6508 001:112.059 JLINK_WriteReg(R0, 0x08001800)
T6508 001:112.076 - 0.017ms returns 0
T6508 001:112.090 JLINK_WriteReg(R1, 0x00000400)
T6508 001:112.101 - 0.011ms returns 0
T6508 001:112.114 JLINK_WriteReg(R2, 0x200001D4)
T6508 001:112.125 - 0.011ms returns 0
T6508 001:112.137 JLINK_WriteReg(R3, 0x00000000)
T6508 001:112.147 - 0.010ms returns 0
T6508 001:112.159 JLINK_WriteReg(R4, 0x00000000)
T6508 001:112.169 - 0.010ms returns 0
T6508 001:112.180 JLINK_WriteReg(R5, 0x00000000)
T6508 001:112.190 - 0.010ms returns 0
T6508 001:112.202 JLINK_WriteReg(R6, 0x00000000)
T6508 001:112.211 - 0.009ms returns 0
T6508 001:112.223 JLINK_WriteReg(R7, 0x00000000)
T6508 001:112.233 - 0.010ms returns 0
T6508 001:112.245 JLINK_WriteReg(R8, 0x00000000)
T6508 001:112.254 - 0.010ms returns 0
T6508 001:112.273 JLINK_WriteReg(R9, 0x200001C0)
T6508 001:112.283 - 0.009ms returns 0
T6508 001:112.295 JLINK_WriteReg(R10, 0x00000000)
T6508 001:112.305 - 0.010ms returns 0
T6508 001:112.316 JLINK_WriteReg(R11, 0x00000000)
T6508 001:112.326 - 0.009ms returns 0
T6508 001:112.338 JLINK_WriteReg(R12, 0x00000000)
T6508 001:112.347 - 0.009ms returns 0
T6508 001:112.359 JLINK_WriteReg(R13 (SP), 0x20008000)
T6508 001:112.371 - 0.011ms returns 0
T6508 001:112.382 JLINK_WriteReg(R14, 0x20000001)
T6508 001:112.392 - 0.010ms returns 0
T6508 001:112.404 JLINK_WriteReg(R15 (PC), 0x2000012E)
T6508 001:112.424 - 0.020ms returns 0
T6508 001:112.436 JLINK_WriteReg(XPSR, 0x01000000)
T6508 001:112.446 - 0.010ms returns 0
T6508 001:112.458 JLINK_WriteReg(MSP, 0x20008000)
T6508 001:112.468 - 0.010ms returns 0
T6508 001:112.480 JLINK_WriteReg(PSP, 0x20008000)
T6508 001:112.490 - 0.010ms returns 0
T6508 001:112.501 JLINK_WriteReg(CFBP, 0x00000000)
T6508 001:112.511 - 0.010ms returns 0
T6508 001:112.524 JLINK_SetBPEx(Addr = 0x20000000, Type = 0xFFFFFFF2)
T6508 001:112.537 - 0.013ms returns 0x0000000B
T6508 001:112.549 JLINK_Go()
T6508 001:112.574   CPU_ReadMem(4 bytes @ 0xE0001000)
T6508 001:115.231 - 2.682ms
T6508 001:115.260 JLINK_IsHalted()
T6508 001:115.689 - 0.428ms returns FALSE
T6508 001:115.709 JLINK_HasError()
T6508 001:117.044 JLINK_IsHalted()
T6508 001:117.412 - 0.367ms returns FALSE
T6508 001:117.435 JLINK_HasError()
T6508 001:119.411 JLINK_IsHalted()
T6508 001:119.718 - 0.307ms returns FALSE
T6508 001:119.741 JLINK_HasError()
T6508 001:121.620 JLINK_IsHalted()
T6508 001:122.174 - 0.554ms returns FALSE
T6508 001:122.201 JLINK_HasError()
T6508 001:124.359 JLINK_IsHalted()
T6508 001:124.866 - 0.506ms returns FALSE
T6508 001:124.917 JLINK_HasError()
T6508 001:126.929 JLINK_IsHalted()
T6508 001:129.107   CPU_ReadMem(2 bytes @ 0x20000000)
T6508 001:129.601 - 2.673ms returns TRUE
T6508 001:129.624 JLINK_ReadReg(R15 (PC))
T6508 001:129.644 - 0.020ms returns 0x20000000
T6508 001:129.662 JLINK_ClrBPEx(BPHandle = 0x0000000B)
T6508 001:129.678 - 0.016ms returns 0x00
T6508 001:129.696 JLINK_ReadReg(R0)
T6508 001:129.711 - 0.015ms returns 0x00000000
T6508 001:131.220 JLINK_WriteMem(0x200001D4, 0x400 Bytes, ...)
T6508 001:131.254   Data:  CE 10 48 64 00 99 88 64 00 99 41 F2 3F 60 C4 F2 ...
T6508 001:131.303   CPU_WriteMem(1024 bytes @ 0x200001D4)
T6508 001:135.196 - 3.976ms returns 0x400
T6508 001:135.247 JLINK_HasError()
T6508 001:135.268 JLINK_WriteReg(R0, 0x08001C00)
T6508 001:135.289 - 0.021ms returns 0
T6508 001:135.305 JLINK_WriteReg(R1, 0x00000400)
T6508 001:135.318 - 0.013ms returns 0
T6508 001:135.334 JLINK_WriteReg(R2, 0x200001D4)
T6508 001:135.347 - 0.013ms returns 0
T6508 001:135.362 JLINK_WriteReg(R3, 0x00000000)
T6508 001:135.375 - 0.013ms returns 0
T6508 001:135.390 JLINK_WriteReg(R4, 0x00000000)
T6508 001:135.408 - 0.018ms returns 0
T6508 001:135.425 JLINK_WriteReg(R5, 0x00000000)
T6508 001:135.439 - 0.014ms returns 0
T6508 001:135.458 JLINK_WriteReg(R6, 0x00000000)
T6508 001:135.472 - 0.014ms returns 0
T6508 001:135.490 JLINK_WriteReg(R7, 0x00000000)
T6508 001:135.504 - 0.014ms returns 0
T6508 001:135.521 JLINK_WriteReg(R8, 0x00000000)
T6508 001:135.535 - 0.014ms returns 0
T6508 001:135.552 JLINK_WriteReg(R9, 0x200001C0)
T6508 001:135.566 - 0.014ms returns 0
T6508 001:135.584 JLINK_WriteReg(R10, 0x00000000)
T6508 001:135.598 - 0.014ms returns 0
T6508 001:135.614 JLINK_WriteReg(R11, 0x00000000)
T6508 001:135.629 - 0.014ms returns 0
T6508 001:135.646 JLINK_WriteReg(R12, 0x00000000)
T6508 001:135.660 - 0.014ms returns 0
T6508 001:135.677 JLINK_WriteReg(R13 (SP), 0x20008000)
T6508 001:135.693 - 0.015ms returns 0
T6508 001:135.709 JLINK_WriteReg(R14, 0x20000001)
T6508 001:135.723 - 0.014ms returns 0
T6508 001:135.740 JLINK_WriteReg(R15 (PC), 0x2000012E)
T6508 001:135.754 - 0.014ms returns 0
T6508 001:135.771 JLINK_WriteReg(XPSR, 0x01000000)
T6508 001:135.786 - 0.015ms returns 0
T6508 001:135.805 JLINK_WriteReg(MSP, 0x20008000)
T6508 001:135.819 - 0.014ms returns 0
T6508 001:135.836 JLINK_WriteReg(PSP, 0x20008000)
T6508 001:135.850 - 0.014ms returns 0
T6508 001:135.868 JLINK_WriteReg(CFBP, 0x00000000)
T6508 001:135.882 - 0.014ms returns 0
T6508 001:135.901 JLINK_SetBPEx(Addr = 0x20000000, Type = 0xFFFFFFF2)
T6508 001:135.918 - 0.018ms returns 0x0000000C
T6508 001:135.936 JLINK_Go()
T6508 001:135.972   CPU_ReadMem(4 bytes @ 0xE0001000)
T6508 001:138.905 - 2.967ms
T6508 001:138.970 JLINK_IsHalted()
T6508 001:139.401 - 0.430ms returns FALSE
T6508 001:139.433 JLINK_HasError()
T6508 001:148.739 JLINK_IsHalted()
T6508 001:149.149 - 0.409ms returns FALSE
T6508 001:149.162 JLINK_HasError()
T6508 001:150.701 JLINK_IsHalted()
T6508 001:152.835   CPU_ReadMem(2 bytes @ 0x20000000)
T6508 001:153.213 - 2.511ms returns TRUE
T6508 001:153.235 JLINK_ReadReg(R15 (PC))
T6508 001:153.251 - 0.016ms returns 0x20000000
T6508 001:153.267 JLINK_ClrBPEx(BPHandle = 0x0000000C)
T6508 001:153.280 - 0.013ms returns 0x00
T6508 001:153.295 JLINK_ReadReg(R0)
T6508 001:153.308 - 0.012ms returns 0x00000000
T6508 001:155.005 JLINK_WriteMem(0x200001D4, 0x400 Bytes, ...)
T6508 001:155.047   Data:  07 90 06 91 05 92 04 93 06 98 07 99 48 60 05 98 ...
T6508 001:155.091   CPU_WriteMem(1024 bytes @ 0x200001D4)
T6508 001:158.826 - 3.824ms returns 0x400
T6508 001:158.857 JLINK_HasError()
T6508 001:158.872 JLINK_WriteReg(R0, 0x08002000)
T6508 001:158.888 - 0.015ms returns 0
T6508 001:158.906 JLINK_WriteReg(R1, 0x00000400)
T6508 001:158.916 - 0.010ms returns 0
T6508 001:158.928 JLINK_WriteReg(R2, 0x200001D4)
T6508 001:158.937 - 0.009ms returns 0
T6508 001:158.949 JLINK_WriteReg(R3, 0x00000000)
T6508 001:158.959 - 0.010ms returns 0
T6508 001:158.971 JLINK_WriteReg(R4, 0x00000000)
T6508 001:158.981 - 0.010ms returns 0
T6508 001:158.992 JLINK_WriteReg(R5, 0x00000000)
T6508 001:159.002 - 0.010ms returns 0
T6508 001:159.014 JLINK_WriteReg(R6, 0x00000000)
T6508 001:159.024 - 0.009ms returns 0
T6508 001:159.036 JLINK_WriteReg(R7, 0x00000000)
T6508 001:159.046 - 0.010ms returns 0
T6508 001:159.057 JLINK_WriteReg(R8, 0x00000000)
T6508 001:159.067 - 0.010ms returns 0
T6508 001:159.079 JLINK_WriteReg(R9, 0x200001C0)
T6508 001:159.089 - 0.010ms returns 0
T6508 001:159.100 JLINK_WriteReg(R10, 0x00000000)
T6508 001:159.110 - 0.010ms returns 0
T6508 001:159.122 JLINK_WriteReg(R11, 0x00000000)
T6508 001:159.131 - 0.009ms returns 0
T6508 001:159.143 JLINK_WriteReg(R12, 0x00000000)
